;$FILEVERSION=2.0
;$STARTTIME=45941.6917846643
;$COLUMNS=N,O,T,I,d,l,D
;
;   Start time: 10/11/2025 16:36:10.195.0
;   Generated by PCAN-View v5.3.0.942
;   Message   Time    Type ID     Rx/Tx
;   Number    Offset  |    [hex]  |  Data Length
;   |         [ms]    |    |      |  |  Data [hex] ...
;   |         |       |    |      |  |  |
;---+-- ------+------ +- --+----- +- +- +- +- -- -- -- -- -- -- --
      1 4294967269.343 DT     0500 Rx 8  40 00 00 00 00 00 00 00 
      2 4294967270.343 DT     0501 Rx 8  04 00 00 00 00 00 00 00 
      3 4294967271.344 DT     0502 Rx 8  04 00 00 00 00 00 00 00 
      4 4294967272.341 DT     0503 Rx 8  04 04 04 04 04 00 00 00 
      5 4294967274.337 DT     0505 Rx 8  04 13 01 55 00 00 06 B5 
      6 4294967279.267 DT     0500 Rx 8  00 00 00 00 00 00 00 00 
      7 4294967280.245 DT     0501 Rx 8  00 00 00 00 00 00 00 00 
      8 4294967281.245 DT     0502 Rx 8  00 00 00 00 00 00 00 00 
      9 4294967282.234 DT     0503 Rx 8  00 12 12 12 12 12 13 12 
     10 4294967283.248 DT     0504 Rx 8  00 00 00 00 00 00 00 00 
     11 4294967284.242 DT     0505 Rx 8  00 3F 3F 3F 40 40 3E 3E 
     12 4294967289.255 DT     0500 Rx 8  10 00 00 00 00 00 00 00 
     13 4294967290.246 DT     0501 Rx 8  01 00 00 00 00 00 00 00 
     14 4294967291.247 DT     0502 Rx 8  01 00 00 00 00 00 00 00 
     15 4294967292.241 DT     0503 Rx 8  01 12 03 03 03 03 04 04 
     16 4294967293.248 DT     0504 Rx 8  40 00 00 00 00 00 00 00 
     17 4294967294.243 DT     0505 Rx 8  01 3F 3F 3F 3F 3F 3F 3F 
     18 4294967299.254 DT     0500 Rx 8  20 00 00 00 00 00 00 00 
     19 4294967300.247 DT     0501 Rx 8  02 00 00 00 00 00 00 00 
     20 4294967301.248 DT     0502 Rx 8  02 00 00 00 00 00 00 00 
     21 4294967302.246 DT     0503 Rx 8  02 04 03 04 03 04 04 04 
     22 4294967303.253 DT     0504 Rx 8  80 00 00 00 00 00 00 00 
     23 4294967304.244 DT     0505 Rx 8  02 3F 3F 3F 3F 3F 3F 3F 
     24 4294967309.246 DT     0500 Rx 8  30 1A 6D 00 00 9A 20 00 
     25 4294967310.249 DT     0501 Rx 8  03 00 00 00 00 00 00 00 
     26 4294967311.250 DT     0502 Rx 8  03 00 00 00 00 00 00 00 
     27 4294967312.245 DT     0503 Rx 8  03 03 04 04 04 04 04 04 
     28 4294967313.253 DT     0504 Rx 8  C0 00 00 00 00 00 00 00 
     29 4294967314.245 DT     0505 Rx 8  03 3F 3F 00 00 00 00 00 
     30 4294967319.250 DT     0500 Rx 8  40 00 00 00 00 00 00 00 
     31 4294967320.249 DT     0501 Rx 8  04 00 00 00 00 00 00 00 
     32 4294967321.250 DT     0502 Rx 8  04 00 00 00 00 00 00 00 
     33 4294967322.249 DT     0503 Rx 8  04 04 04 04 04 00 00 00 
     34 4294967324.243 DT     0505 Rx 8  04 13 01 55 00 00 06 B5 
     35 4294967329.273 DT     0500 Rx 8  00 00 00 00 00 00 00 00 
     36 4294967330.251 DT     0501 Rx 8  00 00 00 00 00 00 00 00 
     37 4294967331.251 DT     0502 Rx 8  00 00 00 00 00 00 00 00 
     38 4294967332.240 DT     0503 Rx 8  00 12 12 12 12 12 13 12 
     39 4294967333.255 DT     0504 Rx 8  00 00 00 00 00 00 00 00 
     40 4294967334.248 DT     0505 Rx 8  00 3F 40 3F 3F 3F 3E 3E 
     41 4294967339.259 DT     0500 Rx 8  10 00 00 00 00 00 00 00 
     42 4294967340.252 DT     0501 Rx 8  01 00 00 00 00 00 00 00 
     43 4294967341.253 DT     0502 Rx 8  01 00 00 00 00 00 00 00 
     44 4294967342.250 DT     0503 Rx 8  01 12 03 03 03 03 03 04 
     45 4294967343.256 DT     0504 Rx 8  40 00 00 00 00 00 00 00 
     46 4294967344.250 DT     0505 Rx 8  01 3F 3F 3F 3F 3F 3F 3F 
     47 4294967349.262 DT     0500 Rx 8  20 00 00 00 00 00 00 00 
     48 4294967350.254 DT     0501 Rx 8  02 00 00 00 00 00 00 00 
     49 4294967351.256 DT     0502 Rx 8  02 00 00 00 00 00 00 00 
     50 4294967352.250 DT     0503 Rx 8  02 04 03 04 03 04 03 04 
     51 4294967353.260 DT     0504 Rx 8  80 00 00 00 00 00 00 00 
     52 4294967354.251 DT     0505 Rx 8  02 3F 3F 3F 3F 3F 3F 3F 
     53 4294967359.253 DT     0500 Rx 8  30 19 6D 00 00 9A 20 00 
     54 4294967360.256 DT     0501 Rx 8  03 00 00 00 00 00 00 00 
     55 4294967361.257 DT     0502 Rx 8  03 00 00 00 00 00 00 00 
     56 4294967362.255 DT     0503 Rx 8  03 03 04 04 04 04 04 04 
     57 4294967363.261 DT     0504 Rx 8  C0 00 00 00 00 00 00 00 
     58 4294967364.253 DT     0505 Rx 8  03 3F 3F 00 00 00 00 00 
     59 4294967369.257 DT     0500 Rx 8  40 00 00 00 00 00 00 00 
     60 4294967370.256 DT     0501 Rx 8  04 00 00 00 00 00 00 00 
     61 4294967371.257 DT     0502 Rx 8  04 00 00 00 00 00 00 00 
     62 4294967372.254 DT     0503 Rx 8  04 04 04 04 04 00 00 00 
     63 4294967374.250 DT     0505 Rx 8  04 13 01 55 00 00 06 B5 
     64 4294967379.280 DT     0500 Rx 8  00 00 00 00 00 00 00 00 
     65 4294967380.258 DT     0501 Rx 8  00 00 00 00 00 00 00 00 
     66 4294967381.259 DT     0502 Rx 8  00 00 00 00 00 00 00 00 
     67 4294967382.248 DT     0503 Rx 8  00 12 12 12 12 12 13 12 
     68 4294967383.262 DT     0504 Rx 8  00 00 00 00 00 00 00 00 
     69 4294967384.255 DT     0505 Rx 8  00 3F 3F 3F 40 40 3E 3E 
     70 4294967389.268 DT     0500 Rx 8  10 00 00 00 00 00 00 00 
     71 4294967390.259 DT     0501 Rx 8  01 00 00 00 00 00 00 00 
     72 4294967391.260 DT     0502 Rx 8  01 00 00 00 00 00 00 00 
     73 4294967392.254 DT     0503 Rx 8  01 12 03 03 03 03 04 04 
     74 4294967393.262 DT     0504 Rx 8  40 00 00 00 00 00 00 00 
     75 4294967394.257 DT     0505 Rx 8  01 3F 3F 3F 3F 3F 3F 3F 
     76 4294967399.268 DT     0500 Rx 8  20 00 00 00 00 00 00 00 
     77 4294967400.261 DT     0501 Rx 8  02 00 00 00 00 00 00 00 
     78 4294967401.262 DT     0502 Rx 8  02 00 00 00 00 00 00 00 
     79 4294967402.259 DT     0503 Rx 8  02 04 03 04 03 04 04 04 
     80 4294967403.266 DT     0504 Rx 8  80 00 00 00 00 00 00 00 
     81 4294967404.257 DT     0505 Rx 8  02 3F 3F 3F 3F 3F 3F 3F 
     82 4294967409.260 DT     0500 Rx 8  30 1A 6D 00 00 9A 20 00 
     83 4294967410.263 DT     0501 Rx 8  03 00 00 00 00 00 00 00 
     84 4294967411.263 DT     0502 Rx 8  03 00 00 00 00 00 00 00 
     85 4294967412.259 DT     0503 Rx 8  03 03 04 04 04 04 04 04 
     86 4294967413.267 DT     0504 Rx 8  C0 00 00 00 00 00 00 00 
     87 4294967414.259 DT     0505 Rx 8  03 3F 3F 00 00 00 00 00 
     88 4294967419.263 DT     0500 Rx 8  40 00 00 00 00 00 00 00 
     89 4294967420.262 DT     0501 Rx 8  04 00 00 00 00 00 00 00 
     90 4294967421.264 DT     0502 Rx 8  04 00 00 00 00 00 00 00 
     91 4294967422.263 DT     0503 Rx 8  04 04 04 04 04 00 00 00 
     92 4294967424.257 DT     0505 Rx 8  04 13 01 55 00 00 06 B5 
     93 4294967429.287 DT     0500 Rx 8  00 00 00 00 00 00 00 00 
     94 4294967430.265 DT     0501 Rx 8  00 00 00 00 00 00 00 00 
     95 4294967431.265 DT     0502 Rx 8  00 00 00 00 00 00 00 00 
     96 4294967432.254 DT     0503 Rx 8  00 12 12 12 12 12 13 12 
     97 4294967433.268 DT     0504 Rx 8  00 00 00 00 00 00 00 00 
     98 4294967434.260 DT     0505 Rx 8  00 3F 40 3F 3F 3F 3E 3E 
     99 4294967439.273 DT     0500 Rx 8  10 00 00 00 00 00 00 00 
    100 4294967440.266 DT     0501 Rx 8  01 00 00 00 00 00 00 00 
    101 4294967441.267 DT     0502 Rx 8  01 00 00 00 00 00 00 00 
    102 4294967442.265 DT     0503 Rx 8  01 12 03 03 03 03 03 04 
    103 4294967443.270 DT     0504 Rx 8  40 00 00 00 00 00 00 00 
    104 4294967444.264 DT     0505 Rx 8  01 3F 3F 3F 3F 3F 3F 3F 
    105 4294967449.275 DT     0500 Rx 8  20 00 00 00 00 00 00 00 
    106 4294967450.267 DT     0501 Rx 8  02 00 00 00 00 00 00 00 
    107 4294967451.270 DT     0502 Rx 8  02 00 00 00 00 00 00 00 
    108 4294967452.264 DT     0503 Rx 8  02 04 03 04 03 04 03 04 
    109 4294967453.274 DT     0504 Rx 8  80 00 00 00 00 00 00 00 
    110 4294967454.265 DT     0505 Rx 8  02 3F 3F 3F 3F 3F 3F 3F 
    111 4294967459.267 DT     0500 Rx 8  30 19 6D 00 00 9A 20 00 
    112 4294967460.270 DT     0501 Rx 8  03 00 00 00 00 00 00 00 
    113 4294967461.270 DT     0502 Rx 8  03 00 00 00 00 00 00 00 
    114 4294967462.268 DT     0503 Rx 8  03 03 04 04 04 04 04 04 
    115 4294967463.274 DT     0504 Rx 8  C0 00 00 00 00 00 00 00 
    116 4294967464.266 DT     0505 Rx 8  03 3F 3F 00 00 00 00 00 
    117 4294967469.271 DT     0500 Rx 8  40 00 00 00 00 00 00 00 
    118 4294967470.270 DT     0501 Rx 8  04 00 00 00 00 00 00 00 
    119 4294967471.271 DT     0502 Rx 8  04 00 00 00 00 00 00 00 
    120 4294967472.268 DT     0503 Rx 8  04 04 04 04 04 00 00 00 
    121 4294967474.264 DT     0505 Rx 8  04 13 01 55 00 00 06 B5 
    122 4294967479.294 DT     0500 Rx 8  00 00 00 00 00 00 00 00 
    123 4294967480.272 DT     0501 Rx 8  00 00 00 00 00 00 00 00 
    124 4294967481.272 DT     0502 Rx 8  00 00 00 00 00 00 00 00 
    125 4294967482.262 DT     0503 Rx 8  00 12 12 12 12 12 13 12 
    126 4294967483.276 DT     0504 Rx 8  00 00 00 00 00 00 00 00 
    127 4294967484.269 DT     0505 Rx 8  00 3F 3F 40 40 40 3E 3E 
    128 4294967489.282 DT     0500 Rx 8  10 00 00 00 00 00 00 00 
    129 4294967490.273 DT     0501 Rx 8  01 00 00 00 00 00 00 00 
    130 4294967491.274 DT     0502 Rx 8  01 00 00 00 00 00 00 00 
    131 4294967492.268 DT     0503 Rx 8  01 12 03 03 03 03 04 04 
    132 4294967493.275 DT     0504 Rx 8  40 00 00 00 00 00 00 00 
    133 4294967494.271 DT     0505 Rx 8  01 3F 3F 3F 3F 3F 3F 3F 
    134 4294967499.282 DT     0500 Rx 8  20 00 00 00 00 00 00 00 
    135 4294967500.274 DT     0501 Rx 8  02 00 00 00 00 00 00 00 
    136 4294967501.276 DT     0502 Rx 8  02 00 00 00 00 00 00 00 
    137 4294967502.273 DT     0503 Rx 8  02 04 03 04 03 04 04 04 
    138 4294967503.280 DT     0504 Rx 8  80 00 00 00 00 00 00 00 
    139 4294967504.270 DT     0505 Rx 8  02 3F 3F 3F 3F 3F 3F 3F 
    140 4294967509.273 DT     0500 Rx 8  30 1A 6D 00 00 9B 20 00 
    141 4294967510.276 DT     0501 Rx 8  03 00 00 00 00 00 00 00 
    142 4294967511.277 DT     0502 Rx 8  03 00 00 00 00 00 00 00 
    143 4294967512.273 DT     0503 Rx 8  03 03 04 04 04 04 04 04 
    144 4294967513.280 DT     0504 Rx 8  C0 00 00 00 00 00 00 00 
    145 4294967514.273 DT     0505 Rx 8  03 3F 3F 00 00 00 00 00 
    146 4294967519.276 DT     0500 Rx 8  40 00 00 00 00 00 00 00 
    147 4294967520.276 DT     0501 Rx 8  04 00 00 00 00 00 00 00 
    148 4294967521.277 DT     0502 Rx 8  04 00 00 00 00 00 00 00 
    149 4294967522.276 DT     0503 Rx 8  04 04 04 04 04 00 00 00 
    150 4294967524.271 DT     0505 Rx 8  04 13 01 55 00 00 06 B5 
    151 4294967529.301 DT     0500 Rx 8  00 00 00 00 00 00 00 00 
    152 4294967530.278 DT     0501 Rx 8  00 00 00 00 00 00 00 00 
    153 4294967531.279 DT     0502 Rx 8  00 00 00 00 00 00 00 00 
    154 4294967532.267 DT     0503 Rx 8  00 12 12 12 12 12 13 12 
    155 4294967533.282 DT     0504 Rx 8  00 00 00 00 00 00 00 00 
    156 4294967534.275 DT     0505 Rx 8  00 3F 40 3F 3F 41 3E 3E 
    157 4294967539.287 DT     0500 Rx 8  10 00 00 00 00 00 00 00 
    158 4294967540.280 DT     0501 Rx 8  01 00 00 00 00 00 00 00 
    159 4294967541.282 DT     0502 Rx 8  01 00 00 00 00 00 00 00 
    160 4294967542.279 DT     0503 Rx 8  01 12 03 03 03 03 03 04 
    161 4294967543.283 DT     0504 Rx 8  40 00 00 00 00 00 00 00 
    162 4294967544.278 DT     0505 Rx 8  01 3F 3F 3F 3F 3F 3F 3F 
    163 4294967549.289 DT     0500 Rx 8  20 00 00 00 00 00 00 00 
    164 4294967550.281 DT     0501 Rx 8  02 00 00 00 00 00 00 00 
    165 4294967551.283 DT     0502 Rx 8  02 00 00 00 00 00 00 00 
    166 4294967552.277 DT     0503 Rx 8  02 04 03 04 03 04 03 04 
    167 4294967553.287 DT     0504 Rx 8  80 00 00 00 00 00 00 00 
    168 4294967554.278 DT     0505 Rx 8  02 3F 3F 3F 3F 3F 3F 3F 
    169 4294967559.282 DT     0500 Rx 8  30 19 6D 00 00 9B 20 00 
    170 4294967560.283 DT     0501 Rx 8  03 00 00 00 00 00 00 00 
    171 4294967561.284 DT     0502 Rx 8  03 00 00 00 00 00 00 00 
    172 4294967562.281 DT     0503 Rx 8  03 03 04 04 04 04 04 04 
    173 4294967563.287 DT     0504 Rx 8  C0 00 00 00 00 00 00 00 
    174 4294967564.280 DT     0505 Rx 8  03 3F 3F 00 00 00 00 00 
    175 4294967569.284 DT     0500 Rx 8  40 00 00 00 00 00 00 00 
    176 4294967570.284 DT     0501 Rx 8  04 00 00 00 00 00 00 00 
    177 4294967571.285 DT     0502 Rx 8  04 00 00 00 00 00 00 00 
    178 4294967572.282 DT     0503 Rx 8  04 04 04 04 04 00 00 00 
    179 4294967574.278 DT     0505 Rx 8  04 13 01 55 00 00 06 B5 
    180 4294967579.308 DT     0500 Rx 8  00 00 00 00 00 00 00 00 
    181 4294967580.286 DT     0501 Rx 8  00 00 00 00 00 00 00 00 
    182 4294967581.285 DT     0502 Rx 8  00 00 00 00 00 00 00 00 
    183 4294967582.275 DT     0503 Rx 8  00 12 12 12 12 12 13 12 
    184 4294967583.290 DT     0504 Rx 8  00 00 00 00 00 00 00 00 
    185 4294967584.283 DT     0505 Rx 8  00 3F 3F 3F 40 40 3E 3E 
    186 4294967589.296 DT     0500 Rx 8  10 00 00 00 00 00 00 00 
    187 4294967590.287 DT     0501 Rx 8  01 00 00 00 00 00 00 00 
    188 4294967591.288 DT     0502 Rx 8  01 00 00 00 00 00 00 00 
    189 4294967592.281 DT     0503 Rx 8  01 12 03 03 03 03 04 04 
    190 4294967593.290 DT     0504 Rx 8  40 00 00 00 00 00 00 00 
    191 4294967594.284 DT     0505 Rx 8  01 3F 3F 3F 3F 3F 3F 3F 
    192 4294967599.295 DT     0500 Rx 8  20 00 00 00 00 00 00 00 
    193 4294967600.288 DT     0501 Rx 8  02 00 00 00 00 00 00 00 
    194 4294967601.289 DT     0502 Rx 8  02 00 00 00 00 00 00 00 
    195 4294967602.286 DT     0503 Rx 8  02 04 03 04 03 04 04 04 
    196 4294967603.293 DT     0504 Rx 8  80 00 00 00 00 00 00 00 
    197 4294967604.284 DT     0505 Rx 8  02 3F 3F 3F 3F 3F 3F 3F 
    198 4294967609.289 DT     0500 Rx 8  30 19 6D 00 00 9B 20 00 
    199 4294967610.290 DT     0501 Rx 8  03 00 00 00 00 00 00 00 
    200 4294967611.291 DT     0502 Rx 8  03 00 00 00 00 00 00 00 
    201 4294967612.286 DT     0503 Rx 8  03 03 04 04 04 04 04 04 
    202 4294967613.294 DT     0504 Rx 8  C0 00 00 00 00 00 00 00 
    203 4294967614.286 DT     0505 Rx 8  03 3F 3F 00 00 00 00 00 
    204 4294967619.290 DT     0500 Rx 8  40 00 00 00 00 00 00 00 
    205 4294967620.289 DT     0501 Rx 8  04 00 00 00 00 00 00 00 
    206 4294967621.291 DT     0502 Rx 8  04 00 00 00 00 00 00 00 
    207 4294967622.290 DT     0503 Rx 8  04 04 04 04 04 00 00 00 
    208 4294967624.284 DT     0505 Rx 8  04 13 01 55 00 00 06 B5 
    209 4294967629.314 DT     0500 Rx 8  00 00 00 00 00 00 00 00 
    210 4294967630.292 DT     0501 Rx 8  00 00 00 00 00 00 00 00 
    211 4294967631.292 DT     0502 Rx 8  00 00 00 00 00 00 00 00 
    212 4294967632.281 DT     0503 Rx 8  00 12 12 12 12 12 13 12 
    213 4294967633.296 DT     0504 Rx 8  00 00 00 00 00 00 00 00 
    214 4294967634.288 DT     0505 Rx 8  00 3F 40 3F 3F 3F 3E 3E 
    215 4294967639.301 DT     0500 Rx 8  10 00 00 00 00 00 00 00 
    216 4294967640.295 DT     0501 Rx 8  01 00 00 00 00 00 00 00 
    217 4294967641.296 DT     0502 Rx 8  01 00 00 00 00 00 00 00 
    218 4294967642.293 DT     0503 Rx 8  01 12 03 03 03 03 03 04 
    219 4294967643.297 DT     0504 Rx 8  40 00 00 00 00 00 00 00 
    220 4294967644.291 DT     0505 Rx 8  01 3F 3F 3F 3F 3F 3F 3F 
    221 4294967649.302 DT     0500 Rx 8  20 00 00 00 00 00 00 00 
    222 4294967650.295 DT     0501 Rx 8  02 00 00 00 00 00 00 00 
    223 4294967651.296 DT     0502 Rx 8  02 00 00 00 00 00 00 00 
    224 4294967652.291 DT     0503 Rx 8  02 04 03 04 03 04 03 04 
    225 4294967653.301 DT     0504 Rx 8  80 00 00 00 00 00 00 00 
    226 4294967654.292 DT     0505 Rx 8  02 3F 3F 3F 3F 3F 3F 3F 
    227 4294967659.295 DT     0500 Rx 8  30 19 6D 00 00 9B 20 00 
    228 4294967660.297 DT     0501 Rx 8  03 00 00 00 00 00 00 00 
    229 4294967661.298 DT     0502 Rx 8  03 00 00 00 00 00 00 00 
    230 4294967662.295 DT     0503 Rx 8  03 03 04 04 04 04 04 04 
    231 4294967663.302 DT     0504 Rx 8  C0 00 00 00 00 00 00 00 
    232 4294967664.294 DT     0505 Rx 8  03 3F 3F 00 00 00 00 00 
    233 4294967669.298 DT     0500 Rx 8  40 00 00 00 00 00 00 00 
    234 4294967670.297 DT     0501 Rx 8  04 00 00 00 00 00 00 00 
    235 4294967671.298 DT     0502 Rx 8  04 00 00 00 00 00 00 00 
    236 4294967672.295 DT     0503 Rx 8  04 04 04 04 04 00 00 00 
    237 4294967674.291 DT     0505 Rx 8  04 13 01 55 00 00 06 B5 
    238 4294967679.321 DT     0500 Rx 8  00 00 00 00 00 00 00 00 
    239 4294967680.299 DT     0501 Rx 8  00 00 00 00 00 00 00 00 
    240 4294967681.299 DT     0502 Rx 8  00 00 00 00 00 00 00 00 
    241 4294967682.289 DT     0503 Rx 8  00 12 12 12 12 12 13 12 
    242 4294967683.303 DT     0504 Rx 8  00 00 00 00 00 00 00 00 
    243 4294967684.296 DT     0505 Rx 8  00 3F 3F 3F 40 40 3E 3E 
    244 4294967689.309 DT     0500 Rx 8  10 00 00 00 00 00 00 00 
    245 4294967690.301 DT     0501 Rx 8  01 00 00 00 00 00 00 00 
    246 4294967691.301 DT     0502 Rx 8  01 00 00 00 00 00 00 00 
    247 4294967692.295 DT     0503 Rx 8  01 12 03 03 03 03 04 04 
    248 4294967693.303 DT     0504 Rx 8  40 00 00 00 00 00 00 00 
    249 4294967694.298 DT     0505 Rx 8  01 3F 3F 3F 3F 3F 3F 3F 
    250 4294967699.309 DT     0500 Rx 8  20 00 00 00 00 00 00 00 
    251 4294967700.302 DT     0501 Rx 8  02 00 00 00 00 00 00 00 
    252 4294967701.303 DT     0502 Rx 8  02 00 00 00 00 00 00 00 
    253 4294967702.300 DT     0503 Rx 8  02 04 03 04 03 04 04 04 
    254 4294967703.307 DT     0504 Rx 8  80 00 00 00 00 00 00 00 
    255 4294967704.298 DT     0505 Rx 8  02 3F 3F 3F 3F 3F 3F 3F 
    256 4294967709.300 DT     0500 Rx 8  30 1A 6D 00 00 9B 20 00 
    257 4294967710.303 DT     0501 Rx 8  03 00 00 00 00 00 00 00 
    258 4294967711.304 DT     0502 Rx 8  03 00 00 00 00 00 00 00 
    259 4294967712.300 DT     0503 Rx 8  03 03 04 04 04 04 04 04 
    260 4294967713.308 DT     0504 Rx 8  C0 00 00 00 00 00 00 00 
    261 4294967714.300 DT     0505 Rx 8  03 3F 3F 00 00 00 00 00 
    262 4294967719.304 DT     0500 Rx 8  40 00 00 00 00 00 00 00 
    263 4294967720.303 DT     0501 Rx 8  04 00 00 00 00 00 00 00 
    264 4294967721.304 DT     0502 Rx 8  04 00 00 00 00 00 00 00 
    265 4294967722.303 DT     0503 Rx 8  04 04 04 04 04 00 00 00 
    266 4294967724.298 DT     0505 Rx 8  04 13 01 55 00 00 06 B5 
    267 4294967729.328 DT     0500 Rx 8  00 00 00 00 00 00 00 00 
    268 4294967730.306 DT     0501 Rx 8  00 00 00 00 00 00 00 00 
    269 4294967731.306 DT     0502 Rx 8  00 00 00 00 00 00 00 00 
    270 4294967732.295 DT     0503 Rx 8  00 12 12 12 12 12 13 12 
    271 4294967733.309 DT     0504 Rx 8  00 00 00 00 00 00 00 00 
    272 4294967734.302 DT     0505 Rx 8  00 3F 40 3F 3F 3F 3E 3E 
    273 4294967739.314 DT     0500 Rx 8  10 00 00 00 00 00 00 00 
    274 4294967740.307 DT     0501 Rx 8  01 00 00 00 00 00 00 00 
    275 4294967741.309 DT     0502 Rx 8  01 00 00 00 00 00 00 00 
    276 4294967742.307 DT     0503 Rx 8  01 12 03 03 03 03 03 04 
    277 4294967743.311 DT     0504 Rx 8  40 00 00 00 00 00 00 00 
    278 4294967744.305 DT     0505 Rx 8  01 3F 3F 3F 3F 3F 3F 3F 
    279 4294967749.316 DT     0500 Rx 8  20 00 00 00 00 00 00 00 
    280 4294967750.309 DT     0501 Rx 8  02 00 00 00 00 00 00 00 
    281 4294967751.310 DT     0502 Rx 8  02 00 00 00 00 00 00 00 
    282 4294967752.304 DT     0503 Rx 8  02 04 03 04 03 04 03 04 
    283 4294967753.314 DT     0504 Rx 8  80 00 00 00 00 00 00 00 
    284 4294967754.305 DT     0505 Rx 8  02 3F 3F 3F 3F 3F 3F 3F 
    285 4294967759.308 DT     0500 Rx 8  30 19 6D 00 00 9A 20 00 
    286 4294967760.311 DT     0501 Rx 8  03 00 00 00 00 00 00 00 
    287 4294967761.312 DT     0502 Rx 8  03 00 00 00 00 00 00 00 
    288 4294967762.309 DT     0503 Rx 8  03 03 04 04 04 04 04 04 
    289 4294967763.315 DT     0504 Rx 8  C0 00 00 00 00 00 00 00 
    290 4294967764.307 DT     0505 Rx 8  03 3F 3F 00 00 00 00 00 
    291 4294967769.311 DT     0500 Rx 8  40 00 00 00 00 00 00 00 
    292 4294967770.310 DT     0501 Rx 8  04 00 00 00 00 00 00 00 
    293 4294967771.312 DT     0502 Rx 8  04 00 00 00 00 00 00 00 
    294 4294967772.309 DT     0503 Rx 8  04 04 04 04 04 00 00 00 
    295 4294967774.305 DT     0505 Rx 8  04 13 01 55 00 00 06 B5 
    296 4294967779.335 DT     0500 Rx 8  00 00 00 00 00 00 00 00 
    297 4294967780.313 DT     0501 Rx 8  00 00 00 00 00 00 00 00 
    298 4294967781.313 DT     0502 Rx 8  00 00 00 00 00 00 00 00 
    299 4294967782.302 DT     0503 Rx 8  00 12 12 12 12 12 13 12 
    300 4294967783.316 DT     0504 Rx 8  00 00 00 00 00 00 00 00 
    301 4294967784.309 DT     0505 Rx 8  00 3F 3F 3F 40 40 3E 3E 
    302 4294967789.323 DT     0500 Rx 8  10 00 00 00 00 00 00 00 
    303 4294967790.315 DT     0501 Rx 8  01 00 00 00 00 00 00 00 
    304 4294967791.315 DT     0502 Rx 8  01 00 00 00 00 00 00 00 
    305 4294967792.309 DT     0503 Rx 8  01 12 03 03 03 03 04 04 
    306 4294967793.317 DT     0504 Rx 8  40 00 00 00 00 00 00 00 
    307 4294967794.311 DT     0505 Rx 8  01 3F 3F 3F 3F 3F 3F 3F 
    308 4294967799.322 DT     0500 Rx 8  20 00 00 00 00 00 00 00 
    309 4294967800.315 DT     0501 Rx 8  02 00 00 00 00 00 00 00 
    310 4294967801.316 DT     0502 Rx 8  02 00 00 00 00 00 00 00 
    311 4294967802.312 DT     0503 Rx 8  02 04 03 04 03 04 03 04 
    312 4294967803.321 DT     0504 Rx 8  80 00 00 00 00 00 00 00 
    313 4294967804.312 DT     0505 Rx 8  02 3F 3F 3F 3F 3F 3F 3F 
    314 4294967809.314 DT     0500 Rx 8  30 1A 6D 00 00 9B 20 00 
    315 4294967810.317 DT     0501 Rx 8  03 00 00 00 00 00 00 00 
    316 4294967811.318 DT     0502 Rx 8  03 00 00 00 00 00 00 00 
    317 4294967812.313 DT     0503 Rx 8  03 03 04 04 04 04 04 04 
    318 4294967813.321 DT     0504 Rx 8  C0 00 00 00 00 00 00 00 
    319 4294967814.313 DT     0505 Rx 8  03 3F 3F 00 00 00 00 00 
    320 4294967819.317 DT     0500 Rx 8  40 00 00 00 00 00 00 00 
    321 4294967820.317 DT     0501 Rx 8  04 00 00 00 00 00 00 00 
    322 4294967821.319 DT     0502 Rx 8  04 00 00 00 00 00 00 00 
    323 4294967822.317 DT     0503 Rx 8  04 04 04 04 04 00 00 00 
    324 4294967824.311 DT     0505 Rx 8  04 13 01 55 00 00 06 B5 
    325 4294967829.341 DT     0500 Rx 8  00 00 00 00 00 00 00 00 
    326 4294967830.319 DT     0501 Rx 8  00 00 00 00 00 00 00 00 
    327 4294967831.319 DT     0502 Rx 8  00 00 00 00 00 00 00 00 
    328 4294967832.309 DT     0503 Rx 8  00 12 12 12 12 12 13 12 
    329 4294967833.323 DT     0504 Rx 8  00 00 00 00 00 00 00 00 
    330 4294967834.316 DT     0505 Rx 8  00 3F 40 3F 3F 3F 3E 3E 
    331 4294967839.328 DT     0500 Rx 8  10 00 00 00 00 00 00 00 
    332 4294967840.321 DT     0501 Rx 8  01 00 00 00 00 00 00 00 
    333 4294967841.323 DT     0502 Rx 8  01 00 00 00 00 00 00 00 
    334 4294967842.320 DT     0503 Rx 8  01 12 03 03 03 03 03 04 
    335 4294967843.324 DT     0504 Rx 8  40 00 00 00 00 00 00 00 
    336 4294967844.318 DT     0505 Rx 8  01 3F 3F 3F 3F 3F 3F 3F 
    337 4294967849.330 DT     0500 Rx 8  20 00 00 00 00 00 00 00 
    338 4294967850.323 DT     0501 Rx 8  02 00 00 00 00 00 00 00 
    339 4294967851.324 DT     0502 Rx 8  02 00 00 00 00 00 00 00 
    340 4294967852.318 DT     0503 Rx 8  02 04 03 04 03 04 03 04 
    341 4294967853.328 DT     0504 Rx 8  80 00 00 00 00 00 00 00 
    342 4294967854.319 DT     0505 Rx 8  02 3F 3F 3F 3F 3F 3F 3F 
    343 4294967859.321 DT     0500 Rx 8  30 19 6D 00 00 9A 20 00 
    344 4294967860.324 DT     0501 Rx 8  03 00 00 00 00 00 00 00 
    345 4294967861.326 DT     0502 Rx 8  03 00 00 00 00 00 00 00 
    346 4294967862.323 DT     0503 Rx 8  03 03 04 04 04 04 04 04 
    347 4294967863.329 DT     0504 Rx 8  C0 00 00 00 00 00 00 00 
    348 4294967864.321 DT     0505 Rx 8  03 3F 3F 00 00 00 00 00 
    349 4294967869.325 DT     0500 Rx 8  40 00 00 00 00 00 00 00 
    350 4294967870.324 DT     0501 Rx 8  04 00 00 00 00 00 00 00 
    351 4294967871.325 DT     0502 Rx 8  04 00 00 00 00 00 00 00 
    352 4294967872.322 DT     0503 Rx 8  04 04 04 04 04 00 00 00 
    353 4294967874.318 DT     0505 Rx 8  04 13 01 55 00 00 06 B5 
    354 4294967879.349 DT     0500 Rx 8  00 00 00 00 00 00 00 00 
    355 4294967880.327 DT     0501 Rx 8  00 00 00 00 00 00 00 00 
    356 4294967881.327 DT     0502 Rx 8  00 00 00 00 00 00 00 00 
    357 4294967882.316 DT     0503 Rx 8  00 12 12 12 12 12 13 12 
    358 4294967883.330 DT     0504 Rx 8  00 00 00 00 00 00 00 00 
    359 4294967884.323 DT     0505 Rx 8  00 3F 3F 3F 40 40 3E 3E 
    360 4294967889.336 DT     0500 Rx 8  10 00 00 00 00 00 00 00 
    361 4294967890.328 DT     0501 Rx 8  01 00 00 00 00 00 00 00 
    362 4294967891.328 DT     0502 Rx 8  01 00 00 00 00 00 00 00 
    363 4294967892.323 DT     0503 Rx 8  01 12 03 03 03 03 04 04 
    364 4294967893.331 DT     0504 Rx 8  40 00 00 00 00 00 00 00 
    365 4294967894.325 DT     0505 Rx 8  01 3F 3F 3F 3F 3F 3F 3F 
    366 4294967899.336 DT     0500 Rx 8  20 00 00 00 00 00 00 00 
