;$FILEVERSION=2.0
;$STARTTIME=45985.3687145718
;$COLUMNS=N,O,T,I,d,l,D
;
;   Start time: 11/24/2025 08:50:56.939.0
;   Generated by PCAN-View v5.3.0.942
;   Message   Time    Type ID     Rx/Tx
;   Number    Offset  |    [hex]  |  Data Length
;   |         [ms]    |    |      |  |  Data [hex] ...
;   |         |       |    |      |  |  |
;---+-- ------+------ +- --+----- +- +- +- +- -- -- -- -- -- -- --
      1         0.839 DT     00F0 Rx 8  60 00 11 7B 00 00 00 00 
      2         1.878 DT     00F0 Rx 8  40 00 00 00 11 6F 11 6A 
      3         2.878 DT     00F0 Rx 8  20 00 00 00 11 81 11 6B 
      4         3.881 DT     00F0 Rx 8  00 00 00 00 00 44 11 67 
      5         4.829 DT     00F0 Rx 8  80 00 11 7B 00 00 00 00 
      6         5.822 DT     00F0 Rx 8  60 00 11 7A 00 00 00 00 
      7         6.859 DT     00F0 Rx 8  40 00 00 00 11 6F 11 6C 
      8         7.858 DT     00F0 Rx 8  20 00 00 00 11 81 11 6D 
      9         8.861 DT     00F0 Rx 8  00 00 00 00 00 44 11 67 
     10         9.814 DT     00F0 Rx 8  80 00 11 7A 00 00 00 00 
     11        10.872 DT     00F1 Rx 8  21 C2 01 A6 00 92 00 00 
     12        11.319 DT     00F0 Rx 8  60 00 11 7A 00 00 00 00 
     13        11.866 DT     00F0 Rx 8  40 00 00 00 11 70 11 6B 
     14        12.866 DT     00F0 Rx 8  20 00 00 00 11 80 11 6B 
     15        13.870 DT     00F0 Rx 8  00 00 00 00 00 44 11 67 
     16        14.818 DT     00F0 Rx 8  80 00 11 7B 00 00 00 00 
     17        15.810 DT     00F0 Rx 8  60 00 11 7B 00 00 00 00 
     18        16.895 DT     00F0 Rx 8  40 00 00 00 11 70 11 6A 
     19        17.892 DT     00F0 Rx 8  20 00 00 00 11 80 11 6B 
     20        18.895 DT     00F0 Rx 8  00 00 00 00 00 44 11 66 
     21        19.813 DT     00F0 Rx 8  80 00 11 7C 00 00 00 00 
     22        20.844 DT     00F0 Rx 8  60 00 11 7A 00 00 00 00 
     23        21.883 DT     00F0 Rx 8  40 00 00 00 11 6F 11 6A 
     24        22.884 DT     00F0 Rx 8  20 00 00 00 11 81 11 6C 
     25        23.888 DT     00F0 Rx 8  00 00 00 00 00 44 11 67 
     26        24.835 DT     00F0 Rx 8  80 00 11 7B 00 00 00 00 
     27        25.828 DT     00F0 Rx 8  60 00 11 7A 00 00 00 00 
     28        26.867 DT     00F0 Rx 8  40 00 00 00 11 6F 11 6A 
     29        27.867 DT     00F0 Rx 8  20 00 00 00 11 81 11 6B 
     30        28.872 DT     00F0 Rx 8  00 00 00 00 00 43 11 67 
     31        29.826 DT     00F0 Rx 8  80 00 11 7C 00 00 00 00 
     32        30.817 DT     00F0 Rx 8  60 00 11 7B 00 00 00 00 
     33        31.301 DT     00F1 Rx 8  00 E1 00 E1 00 E1 00 00 
     34        31.877 DT     00F0 Rx 8  40 00 00 00 11 6C 11 6C 
     35        32.878 DT     00F0 Rx 8  20 00 00 00 11 81 11 6C 
     36        33.881 DT     00F0 Rx 8  00 00 00 00 00 44 11 67 
     37        34.828 DT     00F0 Rx 8  80 00 11 7B 00 00 00 00 
     38        35.822 DT     00F0 Rx 8  60 00 11 7A 00 00 00 00 
     39        36.859 DT     00F0 Rx 8  40 00 00 00 11 6F 11 6B 
     40        37.862 DT     00F0 Rx 8  20 00 00 00 11 81 11 6B 
     41        38.866 DT     00F0 Rx 8  00 00 00 00 00 43 11 67 
     42        39.816 DT     00F0 Rx 8  80 00 11 7B 00 00 00 00 
     43        40.809 DT     00F0 Rx 8  60 00 11 7A 00 00 00 00 
     44        41.888 DT     00F0 Rx 8  40 00 00 00 11 70 11 6A 
     45        42.890 DT     00F0 Rx 8  20 00 00 00 11 81 11 6A 
     46        43.893 DT     00F0 Rx 8  00 00 00 00 00 44 11 67 
     47        44.805 DT     00F0 Rx 8  80 00 11 7A 00 00 00 00 
     48        45.839 DT     00F0 Rx 8  60 00 11 7A 00 00 00 00 
     49        46.878 DT     00F0 Rx 8  40 00 00 00 11 6F 11 6A 
     50        47.879 DT     00F0 Rx 8  20 00 00 00 11 82 11 6C 
     51        48.882 DT     00F0 Rx 8  00 00 00 00 00 44 11 67 
     52        49.834 DT     00F0 Rx 8  80 00 11 7B 00 00 00 00 
     53        50.827 DT     00F0 Rx 8  60 00 11 7B 00 00 00 00 
     54        51.314 DT     00F1 Rx 8  11 D5 00 00 00 00 05 1A 
     55        51.891 DT     00F0 Rx 8  40 00 00 00 11 6F 11 69 
     56        52.851 DT     00F0 Rx 8  20 00 00 00 11 80 11 6A 
     57        53.894 DT     00F0 Rx 8  00 00 00 00 00 44 11 67 
     58        54.801 DT     00F0 Rx 8  80 00 11 7B 00 00 00 00 
     59        55.837 DT     00F0 Rx 8  60 00 11 7A 00 00 00 00 
     60        56.876 DT     00F0 Rx 8  40 00 00 00 11 6F 11 6A 
     61        57.876 DT     00F0 Rx 8  20 00 00 00 11 81 11 6B 
     62        58.881 DT     00F0 Rx 8  00 00 00 00 00 43 11 68 
     63        59.833 DT     00F0 Rx 8  80 00 11 7A 00 00 00 00 
     64        60.825 DT     00F0 Rx 8  60 00 11 7A 00 00 00 00 
     65        61.865 DT     00F0 Rx 8  40 00 00 00 11 6F 11 6A 
     66        62.866 DT     00F0 Rx 8  20 00 00 00 11 80 11 6A 
     67        63.868 DT     00F0 Rx 8  00 00 00 00 00 44 11 67 
     68        64.821 DT     00F0 Rx 8  80 00 11 7C 00 00 00 00 
     69        65.808 DT     00F0 Rx 8  60 00 11 7B 00 00 00 00 
     70        66.847 DT     00F0 Rx 8  40 00 00 00 11 6F 11 6A 
     71        67.848 DT     00F0 Rx 8  20 00 00 00 11 80 11 6C 
     72        68.852 DT     00F0 Rx 8  00 00 00 00 00 44 11 67 
     73        69.803 DT     00F0 Rx 8  80 00 11 7B 00 00 00 00 
     74        70.861 DT     00F1 Rx 8  21 C2 01 A6 00 92 00 00 
     75        71.307 DT     00F0 Rx 8  60 00 11 7A 00 00 00 00 
     76        71.854 DT     00F0 Rx 8  40 00 00 00 11 6F 11 6B 
     77        72.856 DT     00F0 Rx 8  20 00 00 00 11 82 11 6C 
     78        73.856 DT     00F0 Rx 8  00 00 00 00 00 43 11 67 
     79        74.807 DT     00F0 Rx 8  80 00 11 7B 00 00 00 00 
     80        75.801 DT     00F0 Rx 8  60 00 11 7A 00 00 00 00 
     81        76.882 DT     00F0 Rx 8  40 00 00 00 11 6F 11 6A 
     82        77.841 DT     00F0 Rx 8  20 00 00 00 11 80 11 6B 
     83        78.845 DT     00F0 Rx 8  00 00 00 00 00 44 11 69 
     84        79.792 DT     00F0 Rx 8  80 00 11 7B 00 00 00 00 
     85        80.832 DT     00F0 Rx 8  60 00 11 7A 00 00 00 00 
     86        81.871 DT     00F0 Rx 8  40 00 00 00 11 6F 11 6B 
     87        82.873 DT     00F0 Rx 8  20 00 00 00 11 80 11 6A 
     88        83.877 DT     00F0 Rx 8  00 00 00 00 00 43 11 67 
     89        84.823 DT     00F0 Rx 8  80 00 11 7B 00 00 00 00 
     90        85.817 DT     00F0 Rx 8  60 00 11 7B 00 00 00 00 
     91        86.855 DT     00F0 Rx 8  40 00 00 00 11 6F 11 6A 
     92        87.857 DT     00F0 Rx 8  20 00 00 00 11 80 11 6B 
     93        88.860 DT     00F0 Rx 8  00 00 00 00 00 44 11 67 
     94        89.811 DT     00F0 Rx 8  80 00 11 7B 00 00 00 00 
     95        90.801 DT     00F0 Rx 8  60 00 11 7A 00 00 00 00 
     96        91.289 DT     00F1 Rx 8  00 E1 00 E1 00 E1 00 00 
     97        91.865 DT     00F0 Rx 8  40 00 00 00 11 6F 11 6A 
     98        92.867 DT     00F0 Rx 8  20 00 00 00 11 80 11 6B 
     99        93.867 DT     00F0 Rx 8  00 00 00 00 00 44 11 67 
    100        94.821 DT     00F0 Rx 8  80 00 11 7C 00 00 00 00 
    101        95.812 DT     00F0 Rx 8  60 00 11 7A 00 00 00 00 
    102        96.851 DT     00F0 Rx 8  40 00 00 00 11 6F 11 6A 
    103        97.851 DT     00F0 Rx 8  20 00 00 00 11 81 11 6C 
    104        98.855 DT     00F0 Rx 8  00 00 00 00 00 44 11 67 
    105        99.802 DT     00F0 Rx 8  80 00 11 7B 00 00 00 00 
    106       100.797 DT     00F0 Rx 8  60 00 11 7A 00 00 00 00 
    107       101.882 DT     00F0 Rx 8  40 00 00 00 11 6F 11 6A 
    108       102.838 DT     00F0 Rx 8  20 00 00 00 11 80 11 6B 
    109       103.886 DT     00F0 Rx 8  00 00 00 00 00 44 11 67 
    110       104.793 DT     00F0 Rx 8  80 00 11 7B 00 00 00 00 
    111       105.825 DT     00F0 Rx 8  60 00 11 7A 00 00 00 00 
    112       106.864 DT     00F0 Rx 8  40 00 00 00 11 6F 11 6A 
    113       107.866 DT     00F0 Rx 8  20 00 00 00 11 82 11 6C 
    114       108.870 DT     00F0 Rx 8  00 00 00 00 00 44 11 67 
    115       109.822 DT     00F0 Rx 8  80 00 11 7B 00 00 00 00 
    116       110.812 DT     00F0 Rx 8  60 00 11 7B 00 00 00 00 
    117       111.303 DT     00F1 Rx 8  11 D5 00 00 00 00 05 1A 
    118       111.875 DT     00F0 Rx 8  40 00 00 00 11 6F 11 6A 
    119       112.877 DT     00F0 Rx 8  20 00 00 00 11 80 11 6C 
    120       113.878 DT     00F0 Rx 8  00 00 00 00 00 44 11 67 
    121       114.829 DT     00F0 Rx 8  80 00 11 7B 00 00 00 00 
    122       115.822 DT     00F0 Rx 8  60 00 11 7A 00 00 00 00 
    123       116.861 DT     00F0 Rx 8  40 00 00 00 11 71 11 6A 
    124       117.861 DT     00F0 Rx 8  20 00 00 00 11 81 11 6B 
    125       118.865 DT     00F0 Rx 8  00 00 00 00 00 44 11 67 
    126       119.813 DT     00F0 Rx 8  80 00 11 7B 00 00 00 00 
    127       120.807 DT     00F0 Rx 8  60 00 11 7D 00 00 00 00 
    128       121.849 DT     00F0 Rx 8  40 00 00 00 11 6F 11 6A 
    129       122.845 DT     00F0 Rx 8  20 00 00 00 11 82 11 6B 
    130       123.848 DT     00F0 Rx 8  00 00 00 00 00 44 11 67 
    131       124.800 DT     00F0 Rx 8  80 00 11 7A 00 00 00 00 
    132       125.834 DT     00F0 Rx 8  60 00 11 7A 00 00 00 00 
    133       126.873 DT     00F0 Rx 8  40 00 00 00 11 6F 11 6A 
    134       127.875 DT     00F0 Rx 8  20 00 00 00 11 80 11 6C 
    135       128.878 DT     00F0 Rx 8  00 00 00 00 00 44 11 67 
    136       129.829 DT     00F0 Rx 8  80 00 11 7B 00 00 00 00 
    137       130.816 DT     00F0 Rx 8  60 00 11 7B 00 00 00 00 
    138       131.302 DT     00F1 Rx 8  21 C2 01 A6 00 92 00 00 
    139       131.882 DT     00F0 Rx 8  40 00 00 00 11 6F 11 6A 
    140       132.839 DT     00F0 Rx 8  20 00 00 00 11 80 11 6B 
    141       133.842 DT     00F0 Rx 8  00 00 00 00 00 44 11 67 
    142       134.794 DT     00F0 Rx 8  80 00 11 7B 00 00 00 00 
    143       135.828 DT     00F0 Rx 8  60 00 11 7B 00 00 00 00 
    144       136.867 DT     00F0 Rx 8  40 00 00 00 11 6F 11 6A 
    145       137.869 DT     00F0 Rx 8  20 00 00 00 11 80 11 6C 
    146       138.872 DT     00F0 Rx 8  00 00 00 00 00 44 11 67 
    147       139.824 DT     00F0 Rx 8  80 00 11 7B 00 00 00 00 
    148       140.813 DT     00F0 Rx 8  60 00 11 7A 00 00 00 00 
    149       141.856 DT     00F0 Rx 8  40 00 00 00 11 6F 11 6A 
    150       142.853 DT     00F0 Rx 8  20 00 00 00 11 80 11 6B 
    151       143.856 DT     00F0 Rx 8  00 00 00 00 00 42 11 67 
    152       144.807 DT     00F0 Rx 8  80 00 11 7B 00 00 00 00 
    153       145.801 DT     00F0 Rx 8  60 00 11 7A 00 00 00 00 
    154       146.840 DT     00F0 Rx 8  40 00 00 00 11 6F 11 6A 
    155       147.841 DT     00F0 Rx 8  20 00 00 00 11 82 11 6C 
    156       148.846 DT     00F0 Rx 8  00 00 00 00 00 44 11 68 
    157       149.793 DT     00F0 Rx 8  80 00 11 7B 00 00 00 00 
    158       150.858 DT     00F1 Rx 8  00 E1 00 E1 00 E1 00 00 
    159       151.302 DT     00F0 Rx 8  60 00 11 7A 00 00 00 00 
    160       151.845 DT     00F0 Rx 8  40 00 00 00 11 6F 11 6A 
    161       152.846 DT     00F0 Rx 8  20 00 00 00 11 81 11 6B 
    162       153.849 DT     00F0 Rx 8  00 00 00 00 00 44 11 67 
    163       154.801 DT     00F0 Rx 8  80 00 11 7B 00 00 00 00 
    164       155.794 DT     00F0 Rx 8  60 00 11 7A 00 00 00 00 
    165       156.876 DT     00F0 Rx 8  40 00 00 00 11 70 11 6A 
    166       157.836 DT     00F0 Rx 8  20 00 00 00 11 80 11 6B 
    167       158.880 DT     00F0 Rx 8  00 00 00 00 00 43 11 67 
    168       159.793 DT     00F0 Rx 8  80 00 11 7A 00 00 00 00 
    169       160.827 DT     00F0 Rx 8  60 00 11 7A 00 00 00 00 
    170       161.869 DT     00F0 Rx 8  40 00 00 00 11 70 11 6A 
    171       162.870 DT     00F0 Rx 8  20 00 00 00 11 82 11 6C 
    172       163.870 DT     00F0 Rx 8  00 00 00 00 00 43 11 67 
    173       164.823 DT     00F0 Rx 8  80 00 11 7A 00 00 00 00 
    174       165.815 DT     00F0 Rx 8  60 00 11 7A 00 00 00 00 
    175       166.854 DT     00F0 Rx 8  40 00 00 00 11 6F 11 6A 
    176       167.855 DT     00F0 Rx 8  20 00 00 00 11 81 11 6C 
    177       168.859 DT     00F0 Rx 8  00 00 00 00 00 44 11 67 
    178       169.807 DT     00F0 Rx 8  80 00 11 7A 00 00 00 00 
    179       170.800 DT     00F0 Rx 8  60 00 11 7A 00 00 00 00 
    180       171.287 DT     00F1 Rx 8  11 D5 00 00 00 00 05 1A 
    181       171.861 DT     00F0 Rx 8  40 00 00 00 11 6F 11 6A 
    182       172.862 DT     00F0 Rx 8  20 00 00 00 11 82 11 6B 
    183       173.866 DT     00F0 Rx 8  00 00 00 00 00 44 11 67 
    184       174.818 DT     00F0 Rx 8  80 00 11 7B 00 00 00 00 
    185       175.810 DT     00F0 Rx 8  60 00 11 7A 00 00 00 00 
    186       176.849 DT     00F0 Rx 8  40 00 00 00 11 6F 11 6A 
    187       177.850 DT     00F0 Rx 8  20 00 00 00 11 80 11 6B 
    188       178.854 DT     00F0 Rx 8  00 00 00 00 00 44 11 67 
    189       179.802 DT     00F0 Rx 8  80 00 11 7B 00 00 00 00 
    190       180.794 DT     00F0 Rx 8  60 00 11 7B 00 00 00 00 
    191       181.832 DT     00F0 Rx 8  40 00 00 00 11 70 11 6A 
    192       182.834 DT     00F0 Rx 8  20 00 00 00 11 80 11 6B 
    193       183.838 DT     00F0 Rx 8  00 00 00 00 00 44 11 67 
    194       184.789 DT     00F0 Rx 8  80 00 11 7B 00 00 00 00 
    195       185.824 DT     00F0 Rx 8  60 00 11 7A 00 00 00 00 
    196       186.863 DT     00F0 Rx 8  40 00 00 00 11 6F 11 6A 
    197       187.863 DT     00F0 Rx 8  20 00 00 00 11 80 11 6C 
    198       188.867 DT     00F0 Rx 8  00 00 00 00 00 44 11 67 
    199       189.815 DT     00F0 Rx 8  80 00 11 7B 00 00 00 00 
    200       190.808 DT     00F0 Rx 8  60 00 11 7A 00 00 00 00 
    201       191.297 DT     00F1 Rx 8  21 C2 01 A6 00 92 00 00 
    202       191.875 DT     00F0 Rx 8  40 00 00 00 11 6F 11 6A 
    203       192.834 DT     00F0 Rx 8  20 00 00 00 11 81 11 6C 
    204       193.836 DT     00F0 Rx 8  00 00 00 00 00 44 11 67 
    205       194.787 DT     00F0 Rx 8  80 00 11 7B 00 00 00 00 
    206       195.823 DT     00F0 Rx 8  60 00 11 7A 00 00 00 00 
    207       196.862 DT     00F0 Rx 8  40 00 00 00 11 70 11 6A 
    208       197.863 DT     00F0 Rx 8  20 00 00 00 11 82 11 6B 
    209       198.867 DT     00F0 Rx 8  00 00 00 00 00 44 11 67 
    210       199.816 DT     00F0 Rx 8  80 00 11 7B 00 00 00 00 
    211       200.810 DT     00F0 Rx 8  60 00 11 7A 00 00 00 00 
    212       201.848 DT     00F0 Rx 8  40 00 00 00 11 70 11 6A 
    213       202.850 DT     00F0 Rx 8  20 00 00 00 11 81 11 6C 
    214       203.854 DT     00F0 Rx 8  00 00 00 00 00 44 11 67 
    215       204.806 DT     00F0 Rx 8  80 00 11 7B 00 00 00 00 
    216       205.800 DT     00F0 Rx 8  60 00 11 7B 00 00 00 00 
    217       206.837 DT     00F0 Rx 8  40 00 00 00 11 6F 11 6B 
    218       207.842 DT     00F0 Rx 8  20 00 00 00 11 81 11 6C 
    219       208.845 DT     00F0 Rx 8  00 00 00 00 00 44 11 67 
    220       209.792 DT     00F0 Rx 8  80 00 11 7B 00 00 00 00 
    221       210.786 DT     00F0 Rx 8  60 00 11 7B 00 00 00 00 
    222       211.270 DT     00F1 Rx 8  00 E1 00 E1 00 E1 00 00 
    223       211.846 DT     00F0 Rx 8  40 00 00 00 11 6F 11 6A 
    224       212.847 DT     00F0 Rx 8  20 00 00 00 11 80 11 6B 
    225       213.849 DT     00F0 Rx 8  00 00 00 00 00 43 11 66 
    226       214.802 DT     00F0 Rx 8  80 00 11 7B 00 00 00 00 
    227       215.795 DT     00F0 Rx 8  60 00 11 7A 00 00 00 00 
    228       216.834 DT     00F0 Rx 8  40 00 00 00 11 6F 11 6A 
    229       217.837 DT     00F0 Rx 8  20 00 00 00 11 80 11 6B 
    230       218.840 DT     00F0 Rx 8  00 00 00 00 00 44 11 67 
    231       219.788 DT     00F0 Rx 8  80 00 11 7B 00 00 00 00 
    232       220.826 DT     00F0 Rx 8  60 00 11 78 00 00 00 00 
    233       221.863 DT     00F0 Rx 8  40 00 00 00 11 6F 11 6A 
    234       222.865 DT     00F0 Rx 8  20 00 00 00 11 81 11 6C 
    235       223.870 DT     00F0 Rx 8  00 00 00 00 00 42 11 67 
    236       224.822 DT     00F0 Rx 8  80 00 11 7A 00 00 00 00 
    237       225.815 DT     00F0 Rx 8  60 00 11 7A 00 00 00 00 
    238       226.854 DT     00F0 Rx 8  40 00 00 00 11 6F 11 6A 
    239       227.856 DT     00F0 Rx 8  20 00 00 00 11 81 11 6A 
    240       228.860 DT     00F0 Rx 8  00 00 00 00 00 44 11 67 
    241       229.807 DT     00F0 Rx 8  80 00 11 7B 00 00 00 00 
    242       230.800 DT     00F0 Rx 8  60 00 11 7B 00 00 00 00 
    243       231.291 DT     00F1 Rx 8  11 D5 00 00 00 00 05 19 
    244       231.864 DT     00F0 Rx 8  40 00 00 00 11 70 11 6A 
    245       232.866 DT     00F0 Rx 8  20 00 00 00 11 82 11 6A 
    246       233.870 DT     00F0 Rx 8  00 00 00 00 00 43 11 67 
    247       234.824 DT     00F0 Rx 8  80 00 11 7A 00 00 00 00 
    248       235.816 DT     00F0 Rx 8  60 00 11 7A 00 00 00 00 
    249       236.854 DT     00F0 Rx 8  40 00 00 00 11 6F 11 6B 
    250       237.855 DT     00F0 Rx 8  20 00 00 00 11 80 11 6C 
    251       238.859 DT     00F0 Rx 8  00 00 00 00 00 44 11 67 
    252       239.811 DT     00F0 Rx 8  80 00 11 7C 00 00 00 00 
    253       240.803 DT     00F0 Rx 8  60 00 11 7B 00 00 00 00 
    254       241.841 DT     00F0 Rx 8  40 00 00 00 11 6F 11 6A 
    255       242.843 DT     00F0 Rx 8  20 00 00 00 11 80 11 6A 
    256       243.846 DT     00F0 Rx 8  00 00 00 00 00 43 11 67 
    257       244.798 DT     00F0 Rx 8  80 00 11 7A 00 00 00 00 
    258       245.790 DT     00F0 Rx 8  60 00 11 7A 00 00 00 00 
    259       246.866 DT     00F0 Rx 8  40 00 00 00 11 6F 11 6B 
    260       247.868 DT     00F0 Rx 8  20 00 00 00 11 82 11 6C 
    261       248.872 DT     00F0 Rx 8  00 00 00 00 00 44 11 67 
    262       249.819 DT     00F0 Rx 8  80 00 11 7B 00 00 00 00 
    263       250.814 DT     00F0 Rx 8  60 00 11 7A 00 00 00 00 
    264       251.302 DT     00F1 Rx 8  21 C2 01 A6 00 92 00 00 
    265       251.835 DT     00F0 Rx 8  40 00 00 00 11 6F 11 6A 
    266       252.837 DT     00F0 Rx 8  20 00 00 00 11 80 11 6C 
    267       253.841 DT     00F0 Rx 8  00 00 00 00 00 43 11 67 
    268       254.793 DT     00F0 Rx 8  80 00 11 7B 00 00 00 00 
    269       255.786 DT     00F0 Rx 8  60 00 11 7B 00 00 00 00 
    270       256.862 DT     00F0 Rx 8  40 00 00 00 11 6F 11 6A 
    271       257.863 DT     00F0 Rx 8  20 00 00 00 11 82 11 6B 
    272       258.868 DT     00F0 Rx 8  00 00 00 00 00 44 11 66 
    273       259.815 DT     00F0 Rx 8  80 00 11 7B 00 00 00 00 
    274       260.808 DT     00F0 Rx 8  60 00 11 7B 00 00 00 00 
    275       261.847 DT     00F0 Rx 8  40 00 00 00 11 6F 11 6A 
    276       262.848 DT     00F0 Rx 8  20 00 00 00 11 80 11 6C 
    277       263.851 DT     00F0 Rx 8  00 00 00 00 00 44 11 67 
    278       264.802 DT     00F0 Rx 8  80 00 11 7B 00 00 00 00 
    279       265.796 DT     00F0 Rx 8  60 00 11 7B 00 00 00 00 
    280       266.835 DT     00F0 Rx 8  40 00 00 00 11 70 11 6A 
    281       267.837 DT     00F0 Rx 8  20 00 00 00 11 80 11 6B 
    282       268.842 DT     00F0 Rx 8  00 00 00 00 00 44 11 67 
    283       269.789 DT     00F0 Rx 8  80 00 11 7B 00 00 00 00 
    284       270.853 DT     00F1 Rx 8  00 E1 00 E1 00 E1 00 00 
    285       271.298 DT     00F0 Rx 8  60 00 11 7A 00 00 00 00 
    286       271.840 DT     00F0 Rx 8  40 00 00 00 11 6F 11 6A 
    287       272.842 DT     00F0 Rx 8  20 00 00 00 11 80 11 6C 
    288       273.846 DT     00F0 Rx 8  00 00 00 00 00 43 11 67 
    289       274.797 DT     00F0 Rx 8  80 00 11 7A 00 00 00 00 
    290       275.791 DT     00F0 Rx 8  60 00 11 7A 00 00 00 00 
    291       276.831 DT     00F0 Rx 8  40 00 00 00 11 6F 11 6A 
    292       277.874 DT     00F0 Rx 8  20 00 00 00 11 82 11 6C 
    293       278.838 DT     00F0 Rx 8  00 00 00 00 00 43 11 66 
    294       279.787 DT     00F0 Rx 8  80 00 11 7B 00 00 00 00 
    295       280.821 DT     00F0 Rx 8  60 00 11 7B 00 00 00 00 
    296       281.863 DT     00F0 Rx 8  40 00 00 00 11 6F 11 6A 
    297       282.861 DT     00F0 Rx 8  20 00 00 00 11 80 11 6C 
    298       283.866 DT     00F0 Rx 8  00 00 00 00 00 44 11 67 
    299       284.817 DT     00F0 Rx 8  80 00 11 7B 00 00 00 00 
    300       285.811 DT     00F0 Rx 8  60 00 11 7A 00 00 00 00 
    301       286.848 DT     00F0 Rx 8  40 00 00 00 11 6F 11 6A 
    302       287.850 DT     00F0 Rx 8  20 00 00 00 11 81 11 6A 
    303       288.854 DT     00F0 Rx 8  00 00 00 00 00 44 11 67 
    304       289.803 DT     00F0 Rx 8  80 00 11 7B 00 00 00 00 
    305       290.795 DT     00F0 Rx 8  60 00 11 7A 00 00 00 00 
    306       291.286 DT     00F1 Rx 8  11 D5 00 00 00 00 05 1A 
    307       291.863 DT     00F0 Rx 8  40 00 00 00 11 6F 11 6A 
    308       292.860 DT     00F0 Rx 8  20 00 00 00 11 80 11 6A 
    309       293.864 DT     00F0 Rx 8  00 00 00 00 00 44 11 67 
    310       294.816 DT     00F0 Rx 8  80 00 11 7B 00 00 00 00 
    311       295.810 DT     00F0 Rx 8  60 00 11 7B 00 00 00 00 
    312       296.847 DT     00F0 Rx 8  40 00 00 00 11 70 11 6A 
    313       297.848 DT     00F0 Rx 8  20 00 00 00 11 82 11 6C 
    314       298.852 DT     00F0 Rx 8  00 00 00 00 00 44 11 67 
    315       299.800 DT     00F0 Rx 8  80 00 11 7B 00 00 00 00 
    316       300.793 DT     00F0 Rx 8  60 00 11 7A 00 00 00 00 
    317       301.832 DT     00F0 Rx 8  40 00 00 00 11 6F 11 6A 
    318       302.833 DT     00F0 Rx 8  20 00 00 00 11 80 11 6A 
    319       303.837 DT     00F0 Rx 8  00 00 00 00 00 44 11 67 
    320       304.788 DT     00F0 Rx 8  80 00 11 7B 00 00 00 00 
    321       305.781 DT     00F0 Rx 8  60 00 11 7A 00 00 00 00 
    322       306.857 DT     00F0 Rx 8  40 00 00 00 11 6F 11 6A 
    323       307.858 DT     00F0 Rx 8  20 00 00 00 11 80 11 6C 
    324       308.860 DT     00F0 Rx 8  00 00 00 00 00 43 11 67 
    325       309.809 DT     00F0 Rx 8  80 00 11 7B 00 00 00 00 
    326       310.802 DT     00F0 Rx 8  60 00 11 7A 00 00 00 00 
    327       311.291 DT     00F1 Rx 8  21 C2 01 A6 00 92 00 00 
    328       311.824 DT     00F0 Rx 8  40 00 00 00 11 6F 11 6A 
    329       312.825 DT     00F0 Rx 8  20 00 00 00 11 80 11 6A 
    330       313.828 DT     00F0 Rx 8  00 00 00 00 00 44 11 67 
    331       314.779 DT     00F0 Rx 8  80 00 11 7B 00 00 00 00 
    332       315.810 DT     00F0 Rx 8  60 00 11 7B 00 00 00 00 
    333       316.849 DT     00F0 Rx 8  40 00 00 00 11 70 11 6A 
    334       317.850 DT     00F0 Rx 8  20 00 00 00 11 80 11 6A 
    335       318.853 DT     00F0 Rx 8  00 00 00 00 00 44 11 66 
    336       319.800 DT     00F0 Rx 8  80 00 11 7B 00 00 00 00 
    337       320.794 DT     00F0 Rx 8  60 00 11 7A 00 00 00 00 
    338       321.831 DT     00F0 Rx 8  40 00 00 00 11 6F 11 6C 
    339       322.835 DT     00F0 Rx 8  20 00 00 00 11 81 11 6A 
    340       323.839 DT     00F0 Rx 8  00 00 00 00 00 44 11 67 
    341       324.790 DT     00F0 Rx 8  80 00 11 7B 00 00 00 00 
    342       325.784 DT     00F0 Rx 8  60 00 11 7A 00 00 00 00 
    343       326.823 DT     00F0 Rx 8  40 00 00 00 11 6F 11 6A 
    344       327.866 DT     00F0 Rx 8  20 00 00 00 11 81 11 6A 
    345       328.830 DT     00F0 Rx 8  00 00 00 00 00 44 11 66 
    346       329.778 DT     00F0 Rx 8  80 00 11 7B 00 00 00 00 
    347       330.842 DT     00F1 Rx 8  00 E1 00 E1 00 E1 00 00 
    348       331.286 DT     00F0 Rx 8  60 00 11 7B 00 00 00 00 
    349       331.829 DT     00F0 Rx 8  40 00 00 00 11 6F 11 6A 
    350       332.830 DT     00F0 Rx 8  20 00 00 00 11 81 11 6C 
    351       333.832 DT     00F0 Rx 8  00 00 00 00 00 44 11 67 
    352       334.784 DT     00F0 Rx 8  80 00 11 7A 00 00 00 00 
    353       335.772 DT     00F0 Rx 8  60 00 11 7A 00 00 00 00 
    354       336.851 DT     00F0 Rx 8  40 00 00 00 11 6F 11 6A 
    355       337.853 DT     00F0 Rx 8  20 00 00 00 11 80 11 6A 
    356       338.856 DT     00F0 Rx 8  00 00 00 00 00 44 11 67 
    357       339.805 DT     00F0 Rx 8  80 00 11 7B 00 00 00 00 
    358       340.798 DT     00F0 Rx 8  60 00 11 7A 00 00 00 00 
    359       341.835 DT     00F0 Rx 8  40 00 00 00 11 6F 11 6B 
    360       342.838 DT     00F0 Rx 8  20 00 00 00 11 81 11 6B 
    361       343.871 DT     00F0 Rx 8  00 00 00 00 00 44 11 67 
    362       344.823 DT     00F0 Rx 8  80 00 11 7B 00 00 00 00 
    363       345.817 DT     00F0 Rx 8  60 00 11 7B 00 00 00 00 
    364       346.855 DT     00F0 Rx 8  40 00 00 00 11 6F 11 6B 
    365       347.858 DT     00F0 Rx 8  20 00 00 00 11 80 11 6B 
    366       348.862 DT     00F0 Rx 8  00 00 00 00 00 44 11 67 
    367       349.811 DT     00F0 Rx 8  80 00 11 7B 00 00 00 00 
    368       350.805 DT     00F0 Rx 8  60 00 11 7A 00 00 00 00 
    369       351.292 DT     00F1 Rx 8  11 D5 00 00 00 00 05 1A 
    370       351.867 DT     00F0 Rx 8  40 00 00 00 11 6F 11 6A 
    371       352.868 DT     00F0 Rx 8  20 00 00 00 11 80 11 6A 
    372       353.871 DT     00F0 Rx 8  00 00 00 00 00 43 11 66 
